Freq.	V(out)/V(n002)
1.00000000000000e+000	(1.07193488625095e+002dB,-3.80836116421883e+000°)
1.00230523807790e+000	(1.07193400191914e+002dB,-3.81711441940023e+000°)
1.00461579027840e+000	(1.07193311352357e+002dB,-3.82588767386175e+000°)
1.00693166885180e+000	(1.07193222104565e+002dB,-3.83468097247268e+000°)
1.00925288607668e+000	(1.07193132446671e+002dB,-3.84349436019732e+000°)
1.01157945425990e+000	(1.07193042376799e+002dB,-3.85232788209507e+000°)
1.01391138573668e+000	(1.07192951893064e+002dB,-3.86118158332063e+000°)
1.01624869287070e+000	(1.07192860993573e+002dB,-3.87005550912416e+000°)
1.01859138805412e+000	(1.07192769676425e+002dB,-3.87894970485141e+000°)
1.02093948370768e+000	(1.07192677939709e+002dB,-3.88786421594392e+000°)
1.02329299228075e+000	(1.07192585781507e+002dB,-3.89679908793916e+000°)
1.02565192625141e+000	(1.07192493199891e+002dB,-3.90575436647069e+000°)
1.02801629812647e+000	(1.07192400192926e+002dB,-3.91473009726834e+000°)
1.03038612044162e+000	(1.07192306758665e+002dB,-3.92372632615834e+000°)
1.03276140576140e+000	(1.07192212895155e+002dB,-3.93274309906350e+000°)
1.03514216667934e+000	(1.07192118600434e+002dB,-3.94178046200339e+000°)
1.03752841581801e+000	(1.07192023872529e+002dB,-3.95083846109446e+000°)
1.03992016582906e+000	(1.07191928709461e+002dB,-3.95991714255022e+000°)
1.04231742939330e+000	(1.07191833109240e+002dB,-3.96901655268141e+000°)
1.04472021922080e+000	(1.07191737069867e+002dB,-3.97813673789615e+000°)
1.04712854805090e+000	(1.07191640589335e+002dB,-3.98727774470010e+000°)
1.04954242865232e+000	(1.07191543665627e+002dB,-3.99643961969663e+000°)
1.05196187382322e+000	(1.07191446296718e+002dB,-4.00562240958698e+000°)
1.05438689639126e+000	(1.07191348480573e+002dB,-4.01482616117039e+000°)
1.05681750921366e+000	(1.07191250215147e+002dB,-4.02405092134429e+000°)
1.05925372517729e+000	(1.07191151498387e+002dB,-4.03329673710449e+000°)
1.06169555719872e+000	(1.07191052328231e+002dB,-4.04256365554527e+000°)
1.06414301822431e+000	(1.07190952702606e+002dB,-4.05185172385958e+000°)
1.06659612123026e+000	(1.07190852619431e+002dB,-4.06116098933921e+000°)
1.06905487922266e+000	(1.07190752076616e+002dB,-4.07049149937492e+000°)
1.07151930523761e+000	(1.07190651072060e+002dB,-4.07984330145663e+000°)
1.07398941234124e+000	(1.07190549603653e+002dB,-4.08921644317356e+000°)
1.07646521362983e+000	(1.07190447669277e+002dB,-4.09861097221439e+000°)
1.07894672222983e+000	(1.07190345266802e+002dB,-4.10802693636743e+000°)
1.08143395129794e+000	(1.07190242394090e+002dB,-4.11746438352078e+000°)
1.08392691402120e+000	(1.07190139048993e+002dB,-4.12692336166248e+000°)
1.08642562361706e+000	(1.07190035229352e+002dB,-4.13640391888067e+000°)
1.08893009333343e+000	(1.07189930933001e+002dB,-4.14590610336375e+000°)
1.09144033644876e+000	(1.07189826157762e+002dB,-4.15542996340054e+000°)
1.09395636627209e+000	(1.07189720901448e+002dB,-4.16497554738047e+000°)
1.09647819614318e+000	(1.07189615161861e+002dB,-4.17454290379366e+000°)
1.09900583943252e+000	(1.07189508936794e+002dB,-4.18413208123118e+000°)
1.10153930954141e+000	(1.07189402224031e+002dB,-4.19374312838513e+000°)
1.10407861990207e+000	(1.07189295021345e+002dB,-4.20337609404881e+000°)
1.10662378397766e+000	(1.07189187326498e+002dB,-4.21303102711693e+000°)
1.10917481526240e+000	(1.07189079137243e+002dB,-4.22270797658570e+000°)
1.11173172728159e+000	(1.07188970451323e+002dB,-4.23240699155305e+000°)
1.11429453359173e+000	(1.07188861266470e+002dB,-4.24212812121875e+000°)
1.11686324778056e+000	(1.07188751580407e+002dB,-4.25187141488455e+000°)
1.11943788346715e+000	(1.07188641390846e+002dB,-4.26163692195439e+000°)
1.12201845430196e+000	(1.07188530695487e+002dB,-4.27142469193453e+000°)
1.12460497396692e+000	(1.07188419492023e+002dB,-4.28123477443370e+000°)
1.12719745617551e+000	(1.07188307778134e+002dB,-4.29106721916327e+000°)
1.12979591467280e+000	(1.07188195551491e+002dB,-4.30092207593741e+000°)
1.13240036323556e+000	(1.07188082809753e+002dB,-4.31079939467323e+000°)
1.13501081567231e+000	(1.07187969550570e+002dB,-4.32069922539094e+000°)
1.13762728582343e+000	(1.07187855771581e+002dB,-4.33062161821403e+000°)
1.14024978756117e+000	(1.07187741470413e+002dB,-4.34056662336939e+000°)
1.14287833478977e+000	(1.07187626644684e+002dB,-4.35053429118751e+000°)
1.14551294144553e+000	(1.07187511292000e+002dB,-4.36052467210260e+000°)
1.14815362149688e+000	(1.07187395409957e+002dB,-4.37053781665274e+000°)
1.15080038894443e+000	(1.07187278996141e+002dB,-4.38057377548008e+000°)
1.15345325782109e+000	(1.07187162048125e+002dB,-4.39063259933094e+000°)
1.15611224219210e+000	(1.07187044563472e+002dB,-4.40071433905603e+000°)
1.15877735615512e+000	(1.07186926539735e+002dB,-4.41081904561053e+000°)
1.16144861384034e+000	(1.07186807974455e+002dB,-4.42094677005431e+000°)
1.16412602941049e+000	(1.07186688865161e+002dB,-4.43109756355204e+000°)
1.16680961706096e+000	(1.07186569209374e+002dB,-4.44127147737337e+000°)
1.16949939101987e+000	(1.07186449004600e+002dB,-4.45146856289307e+000°)
1.17219536554813e+000	(1.07186328248335e+002dB,-4.46168887159120e+000°)
1.17489755493953e+000	(1.07186206938066e+002dB,-4.47193245505323e+000°)
1.17760597352080e+000	(1.07186085071266e+002dB,-4.48219936497025e+000°)
1.18032063565173e+000	(1.07185962645398e+002dB,-4.49248965313907e+000°)
1.18304155572516e+000	(1.07185839657913e+002dB,-4.50280337146238e+000°)
1.18576874816716e+000	(1.07185716106250e+002dB,-4.51314057194893e+000°)
1.18850222743702e+000	(1.07185591987838e+002dB,-4.52350130671369e+000°)
1.19124200802737e+000	(1.07185467300093e+002dB,-4.53388562797791e+000°)
1.19398810446427e+000	(1.07185342040420e+002dB,-4.54429358806943e+000°)
1.19674053130724e+000	(1.07185216206212e+002dB,-4.55472523942267e+000°)
1.19949930314938e+000	(1.07185089794852e+002dB,-4.56518063457889e+000°)
1.20226443461741e+000	(1.07184962803707e+002dB,-4.57565982618630e+000°)
1.20503594037179e+000	(1.07184835230138e+002dB,-4.58616286700021e+000°)
1.20781383510678e+000	(1.07184707071488e+002dB,-4.59668980988318e+000°)
1.21059813355048e+000	(1.07184578325094e+002dB,-4.60724070780519e+000°)
1.21338885046497e+000	(1.07184448988276e+002dB,-4.61781561384377e+000°)
1.21618600064636e+000	(1.07184319058344e+002dB,-4.62841458118415e+000°)
1.21898959892486e+000	(1.07184188532598e+002dB,-4.63903766311942e+000°)
1.22179966016487e+000	(1.07184057408322e+002dB,-4.64968491305067e+000°)
1.22461619926504e+000	(1.07183925682790e+002dB,-4.66035638448715e+000°)
1.22743923115840e+000	(1.07183793353263e+002dB,-4.67105213104639e+000°)
1.23026877081238e+000	(1.07183660416991e+002dB,-4.68177220645440e+000°)
1.23310483322890e+000	(1.07183526871211e+002dB,-4.69251666454575e+000°)
1.23594743344451e+000	(1.07183392713146e+002dB,-4.70328555926378e+000°)
1.23879658653036e+000	(1.07183257940008e+002dB,-4.71407894466070e+000°)
1.24165230759241e+000	(1.07183122548997e+002dB,-4.72489687489777e+000°)
1.24451461177138e+000	(1.07182986537300e+002dB,-4.73573940424543e+000°)
1.24738351424294e+000	(1.07182849902090e+002dB,-4.74660658708344e+000°)
1.25025903021771e+000	(1.07182712640529e+002dB,-4.75749847790104e+000°)
1.25314117494141e+000	(1.07182574749766e+002dB,-4.76841513129709e+000°)
1.25602996369487e+000	(1.07182436226936e+002dB,-4.77935660198020e+000°)
1.25892541179416e+000	(1.07182297069162e+002dB,-4.79032294476890e+000°)
1.26182753459066e+000	(1.07182157273555e+002dB,-4.80131421459178e+000°)
1.26473634747115e+000	(1.07182016837212e+002dB,-4.81233046648760e+000°)
1.26765186585784e+000	(1.07181875757217e+002dB,-4.82337175560548e+000°)
1.27057410520854e+000	(1.07181734030641e+002dB,-4.83443813720502e+000°)
1.27350308101666e+000	(1.07181591654541e+002dB,-4.84552966665641e+000°)
1.27643880881134e+000	(1.07181448625964e+002dB,-4.85664639944065e+000°)
1.27938130415752e+000	(1.07181304941939e+002dB,-4.86778839114963e+000°)
1.28233058265602e+000	(1.07181160599485e+002dB,-4.87895569748628e+000°)
1.28528665994361e+000	(1.07181015595607e+002dB,-4.89014837426471e+000°)
1.28824955169313e+000	(1.07180869927297e+002dB,-4.90136647741038e+000°)
1.29121927361353e+000	(1.07180723591532e+002dB,-4.91261006296021e+000°)
1.29419584144998e+000	(1.07180576585277e+002dB,-4.92387918706272e+000°)
1.29717927098395e+000	(1.07180428905482e+002dB,-4.93517390597819e+000°)
1.30016957803328e+000	(1.07180280549084e+002dB,-4.94649427607877e+000°)
1.30316677845229e+000	(1.07180131513007e+002dB,-4.95784035384864e+000°)
1.30617088813183e+000	(1.07179981794161e+002dB,-4.96921219588412e+000°)
1.30918192299940e+000	(1.07179831389441e+002dB,-4.98060985889388e+000°)
1.31219989901920e+000	(1.07179680295729e+002dB,-4.99203339969896e+000°)
1.31522483219223e+000	(1.07179528509893e+002dB,-5.00348287523300e+000°)
1.31825673855640e+000	(1.07179376028787e+002dB,-5.01495834254235e+000°)
1.32129563418657e+000	(1.07179222849251e+002dB,-5.02645985878619e+000°)
1.32434153519466e+000	(1.07179068968110e+002dB,-5.03798748123666e+000°)
1.32739445772973e+000	(1.07178914382176e+002dB,-5.04954126727903e+000°)
1.33045441797808e+000	(1.07178759088246e+002dB,-5.06112127441180e+000°)
1.33352143216332e+000	(1.07178603083104e+002dB,-5.07272756024684e+000°)
1.33659551654643e+000	(1.07178446363517e+002dB,-5.08436018250955e+000°)
1.33967668742593e+000	(1.07178288926239e+002dB,-5.09601919903893e+000°)
1.34276496113786e+000	(1.07178130768011e+002dB,-5.10770466778779e+000°)
1.34586035405594e+000	(1.07177971885557e+002dB,-5.11941664682279e+000°)
1.34896288259164e+000	(1.07177812275587e+002dB,-5.13115519432468e+000°)
1.35207256319427e+000	(1.07177651934798e+002dB,-5.14292036858831e+000°)
1.35518941235103e+000	(1.07177490859870e+002dB,-5.15471222802286e+000°)
1.35831344658715e+000	(1.07177329047469e+002dB,-5.16653083115192e+000°)
1.36144468246594e+000	(1.07177166494247e+002dB,-5.17837623661361e+000°)
1.36458313658892e+000	(1.07177003196839e+002dB,-5.19024850316071e+000°)
1.36772882559584e+000	(1.07176839151867e+002dB,-5.20214768966085e+000°)
1.37088176616484e+000	(1.07176674355937e+002dB,-5.21407385509653e+000°)
1.37404197501251e+000	(1.07176508805640e+002dB,-5.22602705856533e+000°)
1.37720946889394e+000	(1.07176342497551e+002dB,-5.23800735927997e+000°)
1.38038426460288e+000	(1.07176175428232e+002dB,-5.25001481656852e+000°)
1.38356637897177e+000	(1.07176007594227e+002dB,-5.26204948987443e+000°)
1.38675582887188e+000	(1.07175838992067e+002dB,-5.27411143875671e+000°)
1.38995263121334e+000	(1.07175669618264e+002dB,-5.28620072289003e+000°)
1.39315680294529e+000	(1.07175499469319e+002dB,-5.29831740206486e+000°)
1.39636836105593e+000	(1.07175328541715e+002dB,-5.31046153618755e+000°)
1.39958732257261e+000	(1.07175156831917e+002dB,-5.32263318528051e+000°)
1.40281370456195e+000	(1.07174984336380e+002dB,-5.33483240948229e+000°)
1.40604752412990e+000	(1.07174811051537e+002dB,-5.34705926904770e+000°)
1.40928879842186e+000	(1.07174636973810e+002dB,-5.35931382434793e+000°)
1.41253754462274e+000	(1.07174462099602e+002dB,-5.37159613587068e+000°)
1.41579377995707e+000	(1.07174286425302e+002dB,-5.38390626422027e+000°)
1.41905752168908e+000	(1.07174109947281e+002dB,-5.39624427011774e+000°)
1.42232878712281e+000	(1.07173932661895e+002dB,-5.40861021440101e+000°)
1.42560759360218e+000	(1.07173754565484e+002dB,-5.42100415802492e+000°)
1.42889395851109e+000	(1.07173575654371e+002dB,-5.43342616206142e+000°)
1.43218789927353e+000	(1.07173395924863e+002dB,-5.44587628769964e+000°)
1.43548943335364e+000	(1.07173215373250e+002dB,-5.45835459624602e+000°)
1.43879857825583e+000	(1.07173033995808e+002dB,-5.47086114912440e+000°)
1.44211535152486e+000	(1.07172851788792e+002dB,-5.48339600787614e+000°)
1.44543977074592e+000	(1.07172668748443e+002dB,-5.49595923416025e+000°)
1.44877185354475e+000	(1.07172484870987e+002dB,-5.50855088975348e+000°)
1.45211161758773e+000	(1.07172300152630e+002dB,-5.52117103655042e+000°)
1.45545908058195e+000	(1.07172114589562e+002dB,-5.53381973656363e+000°)
1.45881426027534e+000	(1.07171928177957e+002dB,-5.54649705192371e+000°)
1.46217717445671e+000	(1.07171740913972e+002dB,-5.55920304487947e+000°)
1.46554784095590e+000	(1.07171552793746e+002dB,-5.57193777779796e+000°)
1.46892627764385e+000	(1.07171363813402e+002dB,-5.58470131316463e+000°)
1.47231250243271e+000	(1.07171173969043e+002dB,-5.59749371358339e+000°)
1.47570653327588e+000	(1.07170983256759e+002dB,-5.61031504177676e+000°)
1.47910838816819e+000	(1.07170791672620e+002dB,-5.62316536058592e+000°)
1.48251808514594e+000	(1.07170599212678e+002dB,-5.63604473297085e+000°)
1.48593564228699e+000	(1.07170405872969e+002dB,-5.64895322201042e+000°)
1.48936107771090e+000	(1.07170211649510e+002dB,-5.66189089090249e+000°)
1.49279440957898e+000	(1.07170016538303e+002dB,-5.67485780296395e+000°)
1.49623565609442e+000	(1.07169820535330e+002dB,-5.68785402163094e+000°)
1.49968483550236e+000	(1.07169623636554e+002dB,-5.70087961045883e+000°)
1.50314196609001e+000	(1.07169425837924e+002dB,-5.71393463312236e+000°)
1.50660706618673e+000	(1.07169227135367e+002dB,-5.72701915341576e+000°)
1.51008015416413e+000	(1.07169027524795e+002dB,-5.74013323525279e+000°)
1.51356124843619e+000	(1.07168827002100e+002dB,-5.75327694266687e+000°)
1.51705036745932e+000	(1.07168625563157e+002dB,-5.76645033981115e+000°)
1.52054752973248e+000	(1.07168423203821e+002dB,-5.77965349095863e+000°)
1.52405275379728e+000	(1.07168219919931e+002dB,-5.79288646050221e+000°)
1.52756605823806e+000	(1.07168015707306e+002dB,-5.80614931295479e+000°)
1.53108746168202e+000	(1.07167810561747e+002dB,-5.81944211294939e+000°)
1.53461698279928e+000	(1.07167604479036e+002dB,-5.83276492523917e+000°)
1.53815464030302e+000	(1.07167397454937e+002dB,-5.84611781469761e+000°)
1.54170045294954e+000	(1.07167189485195e+002dB,-5.85950084631849e+000°)
1.54525443953840e+000	(1.07166980565536e+002dB,-5.87291408521604e+000°)
1.54881661891247e+000	(1.07166770691667e+002dB,-5.88635759662499e+000°)
1.55238700995807e+000	(1.07166559859276e+002dB,-5.89983144590069e+000°)
1.55596563160506e+000	(1.07166348064032e+002dB,-5.91333569851915e+000°)
1.55955250282694e+000	(1.07166135301586e+002dB,-5.92687042007712e+000°)
1.56314764264094e+000	(1.07165921567568e+002dB,-5.94043567629219e+000°)
1.56675107010813e+000	(1.07165706857590e+002dB,-5.95403153300286e+000°)
1.57036280433354e+000	(1.07165491167244e+002dB,-5.96765805616861e+000°)
1.57398286446620e+000	(1.07165274492102e+002dB,-5.98131531186995e+000°)
1.57761126969933e+000	(1.07165056827718e+002dB,-5.99500336630856e+000°)
1.58124803927037e+000	(1.07164838169625e+002dB,-6.00872228580729e+000°)
1.58489319246110e+000	(1.07164618513337e+002dB,-6.02247213681027e+000°)
1.58854674859776e+000	(1.07164397854347e+002dB,-6.03625298588296e+000°)
1.59220872705115e+000	(1.07164176188131e+002dB,-6.05006489971225e+000°)
1.59587914723672e+000	(1.07163953510141e+002dB,-6.06390794510648e+000°)
1.59955802861465e+000	(1.07163729815813e+002dB,-6.07778218899554e+000°)
1.60324539069002e+000	(1.07163505100560e+002dB,-6.09168769843091e+000°)
1.60694125301286e+000	(1.07163279359776e+002dB,-6.10562454058577e+000°)
1.61064563517825e+000	(1.07163052588834e+002dB,-6.11959278275500e+000°)
1.61435855682647e+000	(1.07162824783087e+002dB,-6.13359249235530e+000°)
1.61808003764305e+000	(1.07162595937869e+002dB,-6.14762373692517e+000°)
1.62181009735891e+000	(1.07162366048491e+002dB,-6.16168658412509e+000°)
1.62554875575047e+000	(1.07162135110244e+002dB,-6.17578110173744e+000°)
1.62929603263970e+000	(1.07161903118400e+002dB,-6.18990735766664e+000°)
1.63305194789432e+000	(1.07161670068207e+002dB,-6.20406541993922e+000°)
1.63681652142779e+000	(1.07161435954896e+002dB,-6.21825535670378e+000°)
1.64058977319952e+000	(1.07161200773674e+002dB,-6.23247723623114e+000°)
1.64437172321491e+000	(1.07160964519728e+002dB,-6.24673112691435e+000°)
1.64816239152549e+000	(1.07160727188224e+002dB,-6.26101709726870e+000°)
1.65196179822900e+000	(1.07160488774306e+002dB,-6.27533521593186e+000°)
1.65576996346951e+000	(1.07160249273097e+002dB,-6.28968555166384e+000°)
1.65958690743754e+000	(1.07160008679700e+002dB,-6.30406817334705e+000°)
1.66341265037015e+000	(1.07159766989195e+002dB,-6.31848314998641e+000°)
1.66724721255104e+000	(1.07159524196640e+002dB,-6.33293055070929e+000°)
1.67109061431069e+000	(1.07159280297072e+002dB,-6.34741044476565e+000°)
1.67494287602642e+000	(1.07159035285506e+002dB,-6.36192290152799e+000°)
1.67880401812254e+000	(1.07158789156936e+002dB,-6.37646799049145e+000°)
1.68267406107045e+000	(1.07158541906333e+002dB,-6.39104578127381e+000°)
1.68655302538872e+000	(1.07158293528646e+002dB,-6.40565634361557e+000°)
1.69044093164324e+000	(1.07158044018803e+002dB,-6.42029974737992e+000°)
1.69433780044731e+000	(1.07157793371707e+002dB,-6.43497606255281e+000°)
1.69824365246172e+000	(1.07157541582243e+002dB,-6.44968535924298e+000°)
1.70215850839493e+000	(1.07157288645269e+002dB,-6.46442770768199e+000°)
1.70608238900310e+000	(1.07157034555624e+002dB,-6.47920317822421e+000°)
1.71001531509027e+000	(1.07156779308123e+002dB,-6.49401184134690e+000°)
1.71395730750840e+000	(1.07156522897557e+002dB,-6.50885376765021e+000°)
1.71790838715757e+000	(1.07156265318697e+002dB,-6.52372902785719e+000°)
1.72186857498599e+000	(1.07156006566289e+002dB,-6.53863769281380e+000°)
1.72583789199018e+000	(1.07155746635056e+002dB,-6.55357983348898e+000°)
1.72981635921508e+000	(1.07155485519699e+002dB,-6.56855552097462e+000°)
1.73380399775412e+000	(1.07155223214896e+002dB,-6.58356482648560e+000°)
1.73780082874935e+000	(1.07154959715301e+002dB,-6.59860782135979e+000°)
1.74180687339159e+000	(1.07154695015544e+002dB,-6.61368457705808e+000°)
1.74582215292048e+000	(1.07154429110232e+002dB,-6.62879516516433e+000°)
1.74984668862464e+000	(1.07154161993950e+002dB,-6.64393965738550e+000°)
1.75388050184174e+000	(1.07153893661257e+002dB,-6.65911812555154e+000°)
1.75792361395867e+000	(1.07153624106689e+002dB,-6.67433064161543e+000°)
1.76197604641161e+000	(1.07153353324760e+002dB,-6.68957727765322e+000°)
1.76603782068614e+000	(1.07153081309958e+002dB,-6.70485810586400e+000°)
1.77010895831740e+000	(1.07152808056746e+002dB,-6.72017319856989e+000°)
1.77418948089014e+000	(1.07152533559566e+002dB,-6.73552262821607e+000°)
1.77827941003890e+000	(1.07152257812834e+002dB,-6.75090646737073e+000°)
1.78237876744807e+000	(1.07151980810940e+002dB,-6.76632478872514e+000°)
1.78648757485203e+000	(1.07151702548254e+002dB,-6.78177766509355e+000°)
1.79060585403527e+000	(1.07151423019116e+002dB,-6.79726516941325e+000°)
1.79473362683250e+000	(1.07151142217845e+002dB,-6.81278737474455e+000°)
1.79887091512876e+000	(1.07150860138736e+002dB,-6.82834435427072e+000°)
1.80301774085955e+000	(1.07150576776055e+002dB,-6.84393618129804e+000°)
1.80717412601090e+000	(1.07150292124048e+002dB,-6.85956292925573e+000°)
1.81134009261958e+000	(1.07150006176931e+002dB,-6.87522467169597e+000°)
1.81551566277311e+000	(1.07149718928899e+002dB,-6.89092148229385e+000°)
1.81970085860996e+000	(1.07149430374120e+002dB,-6.90665343484736e+000°)
1.82389570231961e+000	(1.07149140506737e+002dB,-6.92242060327738e+000°)
1.82810021614272e+000	(1.07148849320866e+002dB,-6.93822306162762e+000°)
1.83231442237119e+000	(1.07148556810600e+002dB,-6.95406088406464e+000°)
1.83653834334832e+000	(1.07148262970004e+002dB,-6.96993414487774e+000°)
1.84077200146893e+000	(1.07147967793120e+002dB,-6.98584291847905e+000°)
1.84501541917945e+000	(1.07147671273961e+002dB,-7.00178727940335e+000°)
1.84926861897805e+000	(1.07147373406516e+002dB,-7.01776730230815e+000°)
1.85353162341479e+000	(1.07147074184747e+002dB,-7.03378306197360e+000°)
1.85780445509167e+000	(1.07146773602590e+002dB,-7.04983463330245e+000°)
1.86208713666284e+000	(1.07146471653956e+002dB,-7.06592209132002e+000°)
1.86637969083464e+000	(1.07146168332728e+002dB,-7.08204551117414e+000°)
1.87068214036577e+000	(1.07145863632763e+002dB,-7.09820496813512e+000°)
1.87499450806739e+000	(1.07145557547891e+002dB,-7.11440053759568e+000°)
1.87931681680324e+000	(1.07145250071916e+002dB,-7.13063229507093e+000°)
1.88364908948977e+000	(1.07144941198615e+002dB,-7.14690031619827e+000°)
1.88799134909627e+000	(1.07144630921737e+002dB,-7.16320467673738e+000°)
